T34B4 000:086.472   SEGGER J-Link V6.86 Log File
T34B4 000:087.214   DLL Compiled: Sep 24 2020 17:31:31
T34B4 000:087.230   Logging started @ 2023-01-25 05:40
T34B4 000:087.243 - 87.250ms
T34B4 000:087.278 JLINK_SetWarnOutHandler(...)
T34B4 000:087.295 - 0.024ms
T34B4 000:087.311 JLINK_OpenEx(...)
T34B4 000:089.459   Firmware: J-Link OpenSDA compiled May 27 2019 10:59:53
T34B4 000:106.328   Hardware: V1.00
T34B4 000:106.395   S/N: 621000000
T34B4 000:106.406   OEM: SEGGER
T34B4 000:106.420   Feature(s): None
T34B4 000:107.872   TELNET listener socket opened on port 19021
T34B4 000:108.307   WEBSRV Starting webserver
T34B4 000:108.560   WEBSRV Webserver running on local port 19080
T34B4 000:108.577 - 21.270ms returns "O.K."
T34B4 000:108.601 JLINK_GetEmuCaps()
T34B4 000:108.618 - 0.022ms returns 0x986A5A33
T34B4 000:108.662 JLINK_TIF_GetAvailable(...)
T34B4 000:108.993 - 0.346ms
T34B4 000:109.022 JLINK_SetErrorOutHandler(...)
T34B4 000:109.051 - 0.033ms
T34B4 000:109.094 JLINK_ExecCommand("ProjectFile = "C:\Users\piotr\OneDrive\Laby SM\Projekt\Mikroprocesory\JLinkSettings.ini"", ...). 
T34B4 000:127.155 - 18.080ms returns 0x00
T34B4 000:127.305 JLINK_ExecCommand("Device = MKL05Z32xxx4", ...). 
T34B4 000:127.551   Device "MKL05Z32XXX4" selected.
T34B4 000:127.961 - 0.651ms returns 0x00
T34B4 000:127.990 JLINK_GetHardwareVersion()
T34B4 000:128.001 - 0.014ms returns 10000
T34B4 000:128.021 JLINK_GetDLLVersion()
T34B4 000:128.031 - 0.013ms returns 68600
T34B4 000:128.042 JLINK_GetOEMString(...)
T34B4 000:128.054 JLINK_GetFirmwareString(...)
T34B4 000:128.063 - 0.014ms
T34B4 000:128.228 JLINK_GetDLLVersion()
T34B4 000:128.244 - 0.021ms returns 68600
T34B4 000:128.256 JLINK_GetCompileDateTime()
T34B4 000:128.291 - 0.040ms
T34B4 000:128.361 JLINK_GetFirmwareString(...)
T34B4 000:128.371 - 0.014ms
T34B4 000:128.417 JLINK_GetHardwareVersion()
T34B4 000:128.426 - 0.012ms returns 10000
T34B4 000:128.489 JLINK_GetSN()
T34B4 000:128.498 - 0.012ms returns 621000000
T34B4 000:128.540 JLINK_GetOEMString(...)
T34B4 000:128.585 JLINK_TIF_Select(JLINKARM_TIF_SWD)
T34B4 000:129.548 - 0.983ms returns 0x00
T34B4 000:129.580 JLINK_HasError()
T34B4 000:129.618 JLINK_SetSpeed(5000)
T34B4 000:129.785 - 0.180ms
T34B4 000:129.838 JLINK_GetId()
T34B4 000:130.177   ConfigTargetSettings() start
T34B4 000:130.201    J-Link Script File: Executing ConfigTargetSettings()
T34B4 000:130.293   ConfigTargetSettings() end
T34B4 000:130.345   InitTarget() start
T34B4 000:130.357    J-Link Script File: Executing InitTarget()
T34B4 000:130.402   InitTarget()
T34B4 000:192.412   InitTarget() end
T34B4 000:193.533   Found SW-DP with ID 0x0BC11477
T34B4 000:198.428   Old FW that does not support reading DPIDR via DAP jobs
T34B4 000:203.850   Unknown DP version. Assuming DPv0
T34B4 000:203.941   AP map detection skipped. Manually configured AP map found.
T34B4 000:203.991   AP[0]: AHB-AP (IDR: Not set)
T34B4 000:204.028   AP[1]: MEM-AP (IDR: Not set)
T34B4 000:210.229   AP[0]: Core found
T34B4 000:210.290   AP[0]: AHB-AP ROM base: 0xF0002000
T34B4 000:213.725   CPUID register: 0x410CC600. Implementer code: 0x41 (ARM)
T34B4 000:213.777   Found Cortex-M0 r0p0, Little endian.
T34B4 000:315.658   -- Max. mem block: 0x00001140
T34B4 000:315.751   CPU_ReadMem(4 bytes @ 0xE000EDF0)
T34B4 000:316.938   CPU_WriteMem(4 bytes @ 0xE000EDF0)
T34B4 000:317.601   CPU_ReadMem(4 bytes @ 0xE0002000)
T34B4 000:318.345   FPUnit: 2 code (BP) slots and 0 literal slots
T34B4 000:318.382   CPU_ReadMem(4 bytes @ 0xE000EDFC)
T34B4 000:318.918   CPU_WriteMem(4 bytes @ 0xE000EDFC)
T34B4 000:319.626   CPU_ReadMem(4 bytes @ 0xE0001000)
T34B4 000:320.358   CPU_WriteMem(4 bytes @ 0xE0001000)
T34B4 000:321.040   CoreSight components:
T34B4 000:321.132   ROMTbl[0] @ F0002000
T34B4 000:321.164   CPU_ReadMem(64 bytes @ 0xF0002000)
T34B4 000:322.464   CPU_ReadMem(32 bytes @ 0xF0000FE0)
T34B4 000:323.542   ROMTbl[0][0]: F0000000, CID: B105900D, PID: 000BB932 MTB-M0+
T34B4 000:323.587   CPU_ReadMem(32 bytes @ 0xF0001FE0)
T34B4 000:324.524   ROMTbl[0][1]: F0001000, CID: B105900D, PID: 0008E000 MTBDWT
T34B4 000:324.646   CPU_ReadMem(32 bytes @ 0xE00FFFE0)
T34B4 000:325.582   ROMTbl[0][2]: E00FF000, CID: B105100D, PID: 000BB4C0 ROM Table
T34B4 000:325.658   ROMTbl[1] @ E00FF000
T34B4 000:325.684   CPU_ReadMem(64 bytes @ 0xE00FF000)
T34B4 000:326.947   CPU_ReadMem(32 bytes @ 0xE000EFE0)
T34B4 000:327.894   ROMTbl[1][0]: E000E000, CID: B105E00D, PID: 000BB008 SCS
T34B4 000:327.928   CPU_ReadMem(32 bytes @ 0xE0001FE0)
T34B4 000:328.880   ROMTbl[1][1]: E0001000, CID: B105E00D, PID: 000BB00A DWT
T34B4 000:328.908   CPU_ReadMem(32 bytes @ 0xE0002FE0)
T34B4 000:329.934   ROMTbl[1][2]: E0002000, CID: B105E00D, PID: 000BB00B FPB
T34B4 000:330.590 - 200.766ms returns 0x0BC11477
T34B4 000:330.627 JLINK_GetDLLVersion()
T34B4 000:330.639 - 0.017ms returns 68600
T34B4 000:330.701 JLINK_CORE_GetFound()
T34B4 000:330.716 - 0.022ms returns 0x60000FF
T34B4 000:330.732 JLINK_GetDebugInfo(0x100 = JLINKARM_ROM_TABLE_ADDR_INDEX)
T34B4 000:330.746   Value=0xF0002000
T34B4 000:330.764 - 0.038ms returns 0
T34B4 000:330.835 JLINK_GetDebugInfo(0x100 = JLINKARM_ROM_TABLE_ADDR_INDEX)
T34B4 000:330.852   Value=0xF0002000
T34B4 000:330.868 - 0.039ms returns 0
T34B4 000:330.883 JLINK_GetDebugInfo(0x101 = JLINKARM_DEBUG_INFO_ETM_ADDR_INDEX)
T34B4 000:330.896   Value=0x00000000
T34B4 000:330.914 - 0.037ms returns 0
T34B4 000:330.946 JLINK_ReadMemEx(0xE0041FF0, 0x10 Bytes, Flags = 0x02000004)
T34B4 000:331.010   CPU_ReadMem(16 bytes @ 0xE0041FF0)
T34B4 000:331.722   Data:  00 00 00 00 00 00 00 00 00 00 00 00 00 00 00 00
T34B4 000:331.745 - 0.804ms returns 16 (0x10)
T34B4 000:331.761 JLINK_GetDebugInfo(0x102 = JLINKARM_DEBUG_INFO_MTB_ADDR_INDEX)
T34B4 000:331.774   Value=0xF0000000
T34B4 000:331.790 - 0.035ms returns 0
T34B4 000:331.804 JLINK_CORE_GetFound()
T34B4 000:331.815 - 0.017ms returns 0x60000FF
T34B4 000:331.829 JLINK_GetDebugInfo(0x103 = JLINKARM_DEBUG_INFO_TPIU_ADDR_INDEX)
T34B4 000:331.841   Value=0x00000000
T34B4 000:331.858 - 0.034ms returns 0
T34B4 000:331.872 JLINK_ReadMemEx(0xE0040FF0, 0x10 Bytes, Flags = 0x02000004)
T34B4 000:331.892   CPU_ReadMem(16 bytes @ 0xE0040FF0)
T34B4 000:332.618   Data:  00 00 00 00 00 00 00 00 00 00 00 00 00 00 00 00
T34B4 000:332.640 - 0.773ms returns 16 (0x10)
T34B4 000:332.655 JLINK_GetDebugInfo(0x104 = JLINKARM_DEBUG_INFO_ITM_ADDR_INDEX)
T34B4 000:332.667   Value=0xE0000000
T34B4 000:332.683 - 0.074ms returns 0
T34B4 000:332.746 JLINK_GetDebugInfo(0x105 = JLINKARM_DEBUG_INFO_DWT_ADDR_INDEX)
T34B4 000:332.819   Value=0xE0001000
T34B4 000:332.834 - 0.093ms returns 0
T34B4 000:332.848 JLINK_GetDebugInfo(0x106 = JLINKARM_DEBUG_INFO_FPB_ADDR_INDEX)
T34B4 000:332.860   Value=0xE0002000
T34B4 000:332.875 - 0.032ms returns 0
T34B4 000:332.887 JLINK_GetDebugInfo(0x107 = JLINKARM_DEBUG_INFO_NVIC_ADDR_INDEX)
T34B4 000:332.899   Value=0xE000E000
T34B4 000:332.914 - 0.032ms returns 0
T34B4 000:332.927 JLINK_GetDebugInfo(0x10C = JLINKARM_DEBUG_INFO_DBG_ADDR_INDEX)
T34B4 000:332.939   Value=0xE000EDF0
T34B4 000:332.953 - 0.032ms returns 0
T34B4 000:332.966 JLINK_GetDebugInfo(0x01 = Unknown)
T34B4 000:332.977   Value=0x00000000
T34B4 000:332.993 - 0.032ms returns 0
T34B4 000:333.006 JLINK_ReadMemU32(0xE000ED00, 0x1 Items)
T34B4 000:333.024   CPU_ReadMem(4 bytes @ 0xE000ED00)
T34B4 000:333.563   Data:  00 C6 0C 41
T34B4 000:333.586   Debug reg: CPUID
T34B4 000:333.601 - 0.601ms returns 1 (0x1)
T34B4 000:333.617 JLINK_GetDebugInfo(0x10F = JLINKARM_DEBUG_INFO_HAS_CORTEX_M_SECURITY_EXT_INDEX)
T34B4 000:333.629   Value=0x00000000
T34B4 000:333.645 - 0.033ms returns 0
T34B4 000:333.658 JLINK_HasError()
T34B4 000:333.672 JLINK_SetResetType(JLINKARM_CM3_RESET_TYPE_NORMAL)
T34B4 000:333.799 - 0.145ms returns JLINKARM_CM3_RESET_TYPE_NORMAL
T34B4 000:333.832 JLINK_Reset()
T34B4 000:333.895   CPU is running
T34B4 000:333.920   CPU_WriteMem(4 bytes @ 0xE000EDF0)
T34B4 000:334.549   CPU is running
T34B4 000:334.573   CPU_WriteMem(4 bytes @ 0xE000EDFC)
T34B4 000:335.202   Reset: Halt core after reset via DEMCR.VC_CORERESET.
T34B4 000:335.871   Reset: Reset device via AIRCR.SYSRESETREQ.
T34B4 000:335.894   CPU is running
T34B4 000:335.910   CPU_WriteMem(4 bytes @ 0xE000ED0C)
T34B4 000:388.552   CPU_ReadMem(4 bytes @ 0xE000EDF0)
T34B4 000:389.117   CPU_ReadMem(4 bytes @ 0xE000EDF0)
T34B4 000:389.645   CPU is running
T34B4 000:389.673   CPU_WriteMem(4 bytes @ 0xE000EDF0)
T34B4 000:390.303   CPU is running
T34B4 000:390.328   CPU_WriteMem(4 bytes @ 0xE000EDFC)
T34B4 000:396.908   CPU_ReadMem(4 bytes @ 0xE000EDF0)
T34B4 000:402.733   CPU_WriteMem(4 bytes @ 0xE0002000)
T34B4 000:403.358   CPU_ReadMem(4 bytes @ 0xE000EDFC)
T34B4 000:403.940   CPU_ReadMem(4 bytes @ 0xE0001000)
T34B4 000:404.567   CPU_WriteMem(4 bytes @ 0xE0001000)
T34B4 000:405.254 - 71.441ms
T34B4 000:405.346 JLINK_HasError()
T34B4 000:405.367 JLINK_ReadReg(R15 (PC))
T34B4 000:405.407 - 0.044ms returns 0x000001AC
T34B4 000:405.419 JLINK_ReadReg(XPSR)
T34B4 000:405.430 - 0.015ms returns 0x61000000
T34B4 000:405.442 JLINK_Halt()
T34B4 000:405.452 - 0.014ms returns 0x00
T34B4 000:405.464 JLINK_ReadMemU32(0xE000EDF0, 0x1 Items)
T34B4 000:405.482   CPU_ReadMem(4 bytes @ 0xE000EDF0)
T34B4 000:406.075   Data:  03 00 03 00
T34B4 000:406.102   Debug reg: DHCSR
T34B4 000:406.116 - 0.657ms returns 1 (0x1)
T34B4 000:406.148 JLINK_WriteU32_64(0xE000EDF0, 0xA05F0003)
T34B4 000:406.174   Debug reg: DHCSR
T34B4 000:406.216   CPU_WriteMem(4 bytes @ 0xE000EDF0)
T34B4 000:406.831 - 0.701ms returns 0 (0x00000000)
T34B4 000:406.861 JLINK_WriteU32_64(0xE000EDFC, 0x01000000)
T34B4 000:406.872   Debug reg: DEMCR
T34B4 000:406.896   CPU_WriteMem(4 bytes @ 0xE000EDFC)
T34B4 000:407.465 - 0.625ms returns 0 (0x00000000)
T34B4 000:407.678 JLINK_GetHWStatus(...)
T34B4 000:407.905 - 0.246ms returns 0
T34B4 000:408.060 JLINK_GetNumBPUnits(Type = 0xFFFFFF00)
T34B4 000:408.075 - 0.019ms returns 0x02
T34B4 000:408.086 JLINK_GetNumBPUnits(Type = 0xF0)
T34B4 000:408.096 - 0.014ms returns 0x2000
T34B4 000:408.108 JLINK_GetNumWPUnits()
T34B4 000:408.117 - 0.014ms returns 2
T34B4 000:408.202 JLINK_GetSpeed()
T34B4 000:408.213 - 0.015ms returns 1429
T34B4 000:408.273 JLINK_ReadMemU32(0xE000E004, 0x1 Items)
T34B4 000:408.294   CPU_ReadMem(4 bytes @ 0xE000E004)
T34B4 000:408.963   Data:  00 00 00 00
T34B4 000:409.004 - 0.737ms returns 1 (0x1)
T34B4 000:409.043 JLINK_HasError()
T34B4 000:409.061 JLINK_ReadReg(R15 (PC))
T34B4 000:409.079 - 0.024ms returns 0x000001AC
T34B4 000:409.095 JLINK_ReadReg(XPSR)
T34B4 000:409.109 - 0.020ms returns 0x61000000
T34B4 000:428.955 JLINK_ReadMemU32(0xF000000C, 0x1 Items)
T34B4 000:428.996   CPU_ReadMem(4 bytes @ 0xF000000C)
T34B4 000:429.615   Data:  00 FC FF 1F
T34B4 000:429.634 - 0.682ms returns 1 (0x1)
T34B4 000:511.544 JLINK_HasError()
T34B4 000:511.579 JLINK_SetResetType(JLINKARM_CM3_RESET_TYPE_NORMAL)
T34B4 000:511.591 - 0.016ms returns JLINKARM_CM3_RESET_TYPE_NORMAL
T34B4 000:511.604 JLINK_Reset()
T34B4 000:511.660   CPU_WriteMem(4 bytes @ 0xE000EDF0)
T34B4 000:512.357   CPU_WriteMem(4 bytes @ 0xE000EDFC)
T34B4 000:513.109   Reset: Halt core after reset via DEMCR.VC_CORERESET.
T34B4 000:513.970   Reset: Reset device via AIRCR.SYSRESETREQ.
T34B4 000:513.988   CPU_WriteMem(4 bytes @ 0xE000ED0C)
T34B4 000:567.996   CPU_ReadMem(4 bytes @ 0xE000EDF0)
T34B4 000:568.710   CPU_ReadMem(4 bytes @ 0xE000EDF0)
T34B4 000:569.464   CPU_WriteMem(4 bytes @ 0xE000EDF0)
T34B4 000:570.304   CPU_WriteMem(4 bytes @ 0xE000EDFC)
T34B4 000:577.223   CPU_ReadMem(4 bytes @ 0xE000EDF0)
T34B4 000:583.025   CPU_WriteMem(4 bytes @ 0xE0002000)
T34B4 000:583.672   CPU_ReadMem(4 bytes @ 0xE000EDFC)
T34B4 000:584.328   CPU_ReadMem(4 bytes @ 0xE0001000)
T34B4 000:585.019   CPU_WriteMem(4 bytes @ 0xE0001000)
T34B4 000:585.731 - 74.150ms
T34B4 000:585.854 JLINK_HasError()
T34B4 000:585.872 JLINK_ReadReg(R15 (PC))
T34B4 000:585.894 - 0.028ms returns 0x000001AC
T34B4 000:585.909 JLINK_ReadReg(XPSR)
T34B4 000:585.923 - 0.020ms returns 0x61000000
T34B4 000:586.924 JLINK_ReadMemEx(0x000001AC, 0x3C Bytes, Flags = 0x02000000)
T34B4 000:586.968   CPU_ReadMem(128 bytes @ 0x00000180)
T34B4 000:588.996    -- Updating C cache (128 bytes @ 0x00000180)
T34B4 000:589.111    -- Read from C cache (60 bytes @ 0x000001AC)
T34B4 000:589.173   Data:  07 48 80 47 07 48 00 47 FE E7 FE E7 FE E7 FE E7 ...
T34B4 000:589.234 - 2.345ms returns 60 (0x3C)
T34B4 000:589.308 JLINK_ReadMemEx(0x000001AC, 0x2 Bytes, Flags = 0x02000000)
T34B4 000:589.361    -- Read from C cache (2 bytes @ 0x000001AC)
T34B4 000:589.417   Data:  07 48
T34B4 000:589.471 - 0.184ms returns 2 (0x2)
T34B4 000:589.521 JLINK_ReadMemEx(0x000001AE, 0x2 Bytes, Flags = 0x02000000)
T34B4 000:589.568    -- Read from C cache (2 bytes @ 0x000001AE)
T34B4 000:589.620   Data:  80 47
T34B4 000:589.699 - 0.198ms returns 2 (0x2)
T34B4 000:589.766 JLINK_ReadMemEx(0x000001AE, 0x2 Bytes, Flags = 0x02000000)
T34B4 000:589.787    -- Read from C cache (2 bytes @ 0x000001AE)
T34B4 000:589.833   Data:  80 47
T34B4 000:589.858 - 0.101ms returns 2 (0x2)
T34B4 000:589.879 JLINK_ReadMemEx(0x000001B0, 0x3C Bytes, Flags = 0x02000000)
T34B4 000:589.900    -- Read from C cache (60 bytes @ 0x000001B0)
T34B4 000:589.928   Data:  07 48 00 47 FE E7 FE E7 FE E7 FE E7 FE E7 FE E7 ...
T34B4 000:589.952 - 0.081ms returns 60 (0x3C)
T34B4 000:589.972 JLINK_ReadMemEx(0x000001B0, 0x2 Bytes, Flags = 0x02000000)
T34B4 000:589.991    -- Read from C cache (2 bytes @ 0x000001B0)
T34B4 000:590.033   Data:  07 48
T34B4 000:590.057 - 0.092ms returns 2 (0x2)
T34B4 000:879.252 JLINK_ReadMemEx(0xF80FF000, 0x4 Bytes, Flags = 0x02000004)
T34B4 000:879.299   CPU_ReadMem(4 bytes @ 0xF80FF000)
T34B4 000:879.851   Data:  00 00 00 00
T34B4 000:879.875 - 0.626ms returns 4 (0x4)
T34B4 000:879.892 JLINK_ReadMemEx(0xF80FF010, 0x4 Bytes, Flags = 0x02000004)
T34B4 000:879.907   CPU_ReadMem(4 bytes @ 0xF80FF010)
T34B4 000:880.474   Data:  00 00 00 00
T34B4 000:880.493 - 0.605ms returns 4 (0x4)
T34B4 000:880.506 JLINK_ReadMemEx(0xF80FF014, 0x4 Bytes, Flags = 0x02000004)
T34B4 000:880.519   CPU_ReadMem(4 bytes @ 0xF80FF014)
T34B4 000:881.108   Data:  00 00 00 00
T34B4 000:881.128 - 0.625ms returns 4 (0x4)
T34B4 001:007.031 JLINK_ReadMemEx(0xF80FF040, 0x4 Bytes, Flags = 0x02000004)
T34B4 001:007.108   CPU_ReadMem(4 bytes @ 0xF80FF040)
T34B4 001:007.807   Data:  00 00 00 00
T34B4 001:007.830 - 0.802ms returns 4 (0x4)
T34B4 001:007.846 JLINK_ReadMemEx(0xF80FF050, 0x4 Bytes, Flags = 0x02000004)
T34B4 001:007.862   CPU_ReadMem(4 bytes @ 0xF80FF050)
T34B4 001:008.474   Data:  00 00 00 00
T34B4 001:008.495 - 0.653ms returns 4 (0x4)
T34B4 001:008.509 JLINK_ReadMemEx(0xF80FF054, 0x4 Bytes, Flags = 0x02000004)
T34B4 001:008.549   CPU_ReadMem(4 bytes @ 0xF80FF054)
T34B4 001:009.107   Data:  00 00 00 00
T34B4 001:009.133 - 0.628ms returns 4 (0x4)
T34B4 001:214.148 JLINK_ReadMemEx(0x40049000, 0x7C Bytes, Flags = 0x02000004)
T34B4 001:214.197   CPU_ReadMem(124 bytes @ 0x40049000)
T34B4 001:215.410   failed
T34B4 001:215.432 - 1.288ms returns -1 (0xFFFFFFFF)
T34B4 001:215.449 JLINK_ReadMemEx(0x40049000, 0x4 Bytes, Flags = 0x02000004)
T34B4 001:215.475   CPU_ReadMem(4 bytes @ 0x40049000)
T34B4 001:216.112   failed
T34B4 001:216.143 - 0.699ms returns -1 (0xFFFFFFFF)
T34B4 001:216.160 JLINK_ReadMemEx(0x40049004, 0x4 Bytes, Flags = 0x02000004)
T34B4 001:216.184   CPU_ReadMem(4 bytes @ 0x40049004)
T34B4 001:216.873   failed
T34B4 001:216.893 - 0.737ms returns -1 (0xFFFFFFFF)
T34B4 001:216.907 JLINK_ReadMemEx(0x40049008, 0x4 Bytes, Flags = 0x02000004)
T34B4 001:216.921   CPU_ReadMem(4 bytes @ 0x40049008)
T34B4 001:217.659   failed
T34B4 001:217.676 - 0.772ms returns -1 (0xFFFFFFFF)
T34B4 001:217.687 JLINK_ReadMemEx(0x4004900C, 0x4 Bytes, Flags = 0x02000004)
T34B4 001:217.699   CPU_ReadMem(4 bytes @ 0x4004900C)
T34B4 001:218.375   failed
T34B4 001:218.391 - 0.707ms returns -1 (0xFFFFFFFF)
T34B4 001:218.402 JLINK_ReadMemEx(0x40049010, 0x4 Bytes, Flags = 0x02000004)
T34B4 001:218.414   CPU_ReadMem(4 bytes @ 0x40049010)
T34B4 001:219.077   failed
T34B4 001:219.092 - 0.692ms returns -1 (0xFFFFFFFF)
T34B4 001:219.102 JLINK_ReadMemEx(0x40049014, 0x4 Bytes, Flags = 0x02000004)
T34B4 001:219.164   CPU_ReadMem(4 bytes @ 0x40049014)
T34B4 001:219.800   failed
T34B4 001:219.815 - 0.715ms returns -1 (0xFFFFFFFF)
T34B4 001:219.825 JLINK_ReadMemEx(0x40049018, 0x4 Bytes, Flags = 0x02000004)
T34B4 001:219.839   CPU_ReadMem(4 bytes @ 0x40049018)
T34B4 001:220.480   failed
T34B4 001:220.495 - 0.673ms returns -1 (0xFFFFFFFF)
T34B4 001:220.505 JLINK_ReadMemEx(0x4004901C, 0x4 Bytes, Flags = 0x02000004)
T34B4 001:220.516   CPU_ReadMem(4 bytes @ 0x4004901C)
T34B4 001:221.200   failed
T34B4 001:221.214 - 0.711ms returns -1 (0xFFFFFFFF)
T34B4 001:221.224 JLINK_ReadMemEx(0x40049020, 0x4 Bytes, Flags = 0x02000004)
T34B4 001:221.234   CPU_ReadMem(4 bytes @ 0x40049020)
T34B4 001:221.892   failed
T34B4 001:221.907 - 0.685ms returns -1 (0xFFFFFFFF)
T34B4 001:221.916 JLINK_ReadMemEx(0x40049024, 0x4 Bytes, Flags = 0x02000004)
T34B4 001:221.927   CPU_ReadMem(4 bytes @ 0x40049024)
T34B4 001:222.632   failed
T34B4 001:222.647 - 0.733ms returns -1 (0xFFFFFFFF)
T34B4 001:222.656 JLINK_ReadMemEx(0x40049028, 0x4 Bytes, Flags = 0x02000004)
T34B4 001:222.667   CPU_ReadMem(4 bytes @ 0x40049028)
T34B4 001:223.380   failed
T34B4 001:223.395 - 0.741ms returns -1 (0xFFFFFFFF)
T34B4 001:223.404 JLINK_ReadMemEx(0x4004902C, 0x4 Bytes, Flags = 0x02000004)
T34B4 001:223.415   CPU_ReadMem(4 bytes @ 0x4004902C)
T34B4 001:224.101   failed
T34B4 001:224.115 - 0.713ms returns -1 (0xFFFFFFFF)
T34B4 001:224.125 JLINK_ReadMemEx(0x40049030, 0x4 Bytes, Flags = 0x02000004)
T34B4 001:224.135   CPU_ReadMem(4 bytes @ 0x40049030)
T34B4 001:224.802   failed
T34B4 001:224.817 - 0.694ms returns -1 (0xFFFFFFFF)
T34B4 001:224.829 JLINK_ReadMemEx(0x40049034, 0x4 Bytes, Flags = 0x02000004)
T34B4 001:224.842   CPU_ReadMem(4 bytes @ 0x40049034)
T34B4 001:225.482   failed
T34B4 001:225.496 - 0.669ms returns -1 (0xFFFFFFFF)
T34B4 001:225.508 JLINK_ReadMemEx(0x40049038, 0x4 Bytes, Flags = 0x02000004)
T34B4 001:225.545   CPU_ReadMem(4 bytes @ 0x40049038)
T34B4 001:226.252   failed
T34B4 001:226.270 - 0.766ms returns -1 (0xFFFFFFFF)
T34B4 001:226.285 JLINK_ReadMemEx(0x4004903C, 0x4 Bytes, Flags = 0x02000004)
T34B4 001:226.301   CPU_ReadMem(4 bytes @ 0x4004903C)
T34B4 001:226.985   failed
T34B4 001:227.004 - 0.722ms returns -1 (0xFFFFFFFF)
T34B4 001:227.018 JLINK_ReadMemEx(0x40049040, 0x4 Bytes, Flags = 0x02000004)
T34B4 001:227.035   CPU_ReadMem(4 bytes @ 0x40049040)
T34B4 001:227.665   failed
T34B4 001:227.690 - 0.676ms returns -1 (0xFFFFFFFF)
T34B4 001:227.706 JLINK_ReadMemEx(0x40049044, 0x4 Bytes, Flags = 0x02000004)
T34B4 001:227.727   CPU_ReadMem(4 bytes @ 0x40049044)
T34B4 001:228.507   failed
T34B4 001:228.525 - 0.822ms returns -1 (0xFFFFFFFF)
T34B4 001:228.539 JLINK_ReadMemEx(0x40049048, 0x4 Bytes, Flags = 0x02000004)
T34B4 001:228.574   CPU_ReadMem(4 bytes @ 0x40049048)
T34B4 001:229.378   failed
T34B4 001:229.396 - 0.860ms returns -1 (0xFFFFFFFF)
T34B4 001:229.411 JLINK_ReadMemEx(0x4004904C, 0x4 Bytes, Flags = 0x02000004)
T34B4 001:229.427   CPU_ReadMem(4 bytes @ 0x4004904C)
T34B4 001:230.133   failed
T34B4 001:230.151 - 0.743ms returns -1 (0xFFFFFFFF)
T34B4 001:230.166 JLINK_ReadMemEx(0x40049050, 0x4 Bytes, Flags = 0x02000004)
T34B4 001:230.182   CPU_ReadMem(4 bytes @ 0x40049050)
T34B4 001:230.902   failed
T34B4 001:230.921 - 0.758ms returns -1 (0xFFFFFFFF)
T34B4 001:230.936 JLINK_ReadMemEx(0x40049054, 0x4 Bytes, Flags = 0x02000004)
T34B4 001:230.952   CPU_ReadMem(4 bytes @ 0x40049054)
T34B4 001:231.607   failed
T34B4 001:231.629 - 0.696ms returns -1 (0xFFFFFFFF)
T34B4 001:231.643 JLINK_ReadMemEx(0x40049058, 0x4 Bytes, Flags = 0x02000004)
T34B4 001:231.667   CPU_ReadMem(4 bytes @ 0x40049058)
T34B4 001:232.267   failed
T34B4 001:232.321 - 0.682ms returns -1 (0xFFFFFFFF)
T34B4 001:232.338 JLINK_ReadMemEx(0x4004905C, 0x4 Bytes, Flags = 0x02000004)
T34B4 001:232.355   CPU_ReadMem(4 bytes @ 0x4004905C)
T34B4 001:232.951   failed
T34B4 001:233.005 - 0.670ms returns -1 (0xFFFFFFFF)
T34B4 001:233.021 JLINK_ReadMemEx(0x40049060, 0x4 Bytes, Flags = 0x02000004)
T34B4 001:233.044   CPU_ReadMem(4 bytes @ 0x40049060)
T34B4 001:233.846   failed
T34B4 001:233.869 - 0.852ms returns -1 (0xFFFFFFFF)
T34B4 001:233.887 JLINK_ReadMemEx(0x40049064, 0x4 Bytes, Flags = 0x02000004)
T34B4 001:233.913   CPU_ReadMem(4 bytes @ 0x40049064)
T34B4 001:234.592   failed
T34B4 001:234.619 - 0.736ms returns -1 (0xFFFFFFFF)
T34B4 001:234.637 JLINK_ReadMemEx(0x40049068, 0x4 Bytes, Flags = 0x02000004)
T34B4 001:234.658   CPU_ReadMem(4 bytes @ 0x40049068)
T34B4 001:235.388   failed
T34B4 001:235.410 - 0.777ms returns -1 (0xFFFFFFFF)
T34B4 001:235.428 JLINK_ReadMemEx(0x4004906C, 0x4 Bytes, Flags = 0x02000004)
T34B4 001:235.448   CPU_ReadMem(4 bytes @ 0x4004906C)
T34B4 001:236.150   failed
T34B4 001:236.172 - 0.748ms returns -1 (0xFFFFFFFF)
T34B4 001:236.190 JLINK_ReadMemEx(0x40049070, 0x4 Bytes, Flags = 0x02000004)
T34B4 001:236.211   CPU_ReadMem(4 bytes @ 0x40049070)
T34B4 001:236.902   failed
T34B4 001:236.925 - 0.739ms returns -1 (0xFFFFFFFF)
T34B4 001:236.943 JLINK_ReadMemEx(0x40049074, 0x4 Bytes, Flags = 0x02000004)
T34B4 001:236.964   CPU_ReadMem(4 bytes @ 0x40049074)
T34B4 001:237.667   failed
T34B4 001:237.748 - 0.807ms returns -1 (0xFFFFFFFF)
T34B4 001:237.760 JLINK_ReadMemEx(0x40049078, 0x4 Bytes, Flags = 0x02000004)
T34B4 001:237.770   CPU_ReadMem(4 bytes @ 0x40049078)
T34B4 001:238.474   failed
T34B4 001:238.489 - 0.731ms returns -1 (0xFFFFFFFF)
T34B4 001:238.502 JLINK_ReadMemEx(0x4004907C, 0x4 Bytes, Flags = 0x02000004)
T34B4 001:238.513   CPU_ReadMem(4 bytes @ 0x4004907C)
T34B4 001:239.185   failed
T34B4 001:239.201 - 0.701ms returns -1 (0xFFFFFFFF)
T34B4 001:239.213 JLINK_ReadMemEx(0x4004907C, 0x4 Bytes, Flags = 0x02000004)
T34B4 001:239.224   CPU_ReadMem(4 bytes @ 0x4004907C)
T34B4 001:239.872   failed
T34B4 001:239.887 - 0.676ms returns -1 (0xFFFFFFFF)
T34B4 001:239.899 JLINK_ReadMemEx(0x400490A0, 0x4 Bytes, Flags = 0x02000004)
T34B4 001:239.910   CPU_ReadMem(4 bytes @ 0x400490A0)
T34B4 001:240.568   failed
T34B4 001:240.583 - 0.686ms returns -1 (0xFFFFFFFF)
T34B4 001:240.595 JLINK_ReadMemEx(0x400490A0, 0x4 Bytes, Flags = 0x02000004)
T34B4 001:240.606   CPU_ReadMem(4 bytes @ 0x400490A0)
T34B4 001:241.256   failed
T34B4 001:241.271 - 0.678ms returns -1 (0xFFFFFFFF)
T34B4 001:442.741 JLINK_ReadMemEx(0x4004A000, 0x7C Bytes, Flags = 0x02000004)
T34B4 001:442.793   CPU_ReadMem(124 bytes @ 0x4004A000)
T34B4 001:444.236   failed
T34B4 001:444.273 - 1.538ms returns -1 (0xFFFFFFFF)
T34B4 001:444.299 JLINK_ReadMemEx(0x4004A000, 0x4 Bytes, Flags = 0x02000004)
T34B4 001:444.328   CPU_ReadMem(4 bytes @ 0x4004A000)
T34B4 001:445.264   failed
T34B4 001:445.283 - 0.986ms returns -1 (0xFFFFFFFF)
T34B4 001:445.294 JLINK_ReadMemEx(0x4004A004, 0x4 Bytes, Flags = 0x02000004)
T34B4 001:445.308   CPU_ReadMem(4 bytes @ 0x4004A004)
T34B4 001:446.155   failed
T34B4 001:446.174 - 0.883ms returns -1 (0xFFFFFFFF)
T34B4 001:446.190 JLINK_ReadMemEx(0x4004A008, 0x4 Bytes, Flags = 0x02000004)
T34B4 001:446.206   CPU_ReadMem(4 bytes @ 0x4004A008)
T34B4 001:447.074   failed
T34B4 001:447.099 - 0.914ms returns -1 (0xFFFFFFFF)
T34B4 001:447.288 JLINK_ReadMemEx(0x4004A00C, 0x4 Bytes, Flags = 0x02000004)
T34B4 001:447.341   CPU_ReadMem(4 bytes @ 0x4004A00C)
T34B4 001:448.094   failed
T34B4 001:448.133 - 0.852ms returns -1 (0xFFFFFFFF)
T34B4 001:448.157 JLINK_ReadMemEx(0x4004A010, 0x4 Bytes, Flags = 0x02000004)
T34B4 001:448.182   CPU_ReadMem(4 bytes @ 0x4004A010)
T34B4 001:448.874   failed
T34B4 001:448.893 - 0.741ms returns -1 (0xFFFFFFFF)
T34B4 001:448.908 JLINK_ReadMemEx(0x4004A014, 0x4 Bytes, Flags = 0x02000004)
T34B4 001:448.923   CPU_ReadMem(4 bytes @ 0x4004A014)
T34B4 001:449.628   failed
T34B4 001:449.676 - 0.772ms returns -1 (0xFFFFFFFF)
T34B4 001:449.689 JLINK_ReadMemEx(0x4004A018, 0x4 Bytes, Flags = 0x02000004)
T34B4 001:449.703   CPU_ReadMem(4 bytes @ 0x4004A018)
T34B4 001:450.404   failed
T34B4 001:450.423 - 0.737ms returns -1 (0xFFFFFFFF)
T34B4 001:450.439 JLINK_ReadMemEx(0x4004A01C, 0x4 Bytes, Flags = 0x02000004)
T34B4 001:450.457   CPU_ReadMem(4 bytes @ 0x4004A01C)
T34B4 001:451.255   failed
T34B4 001:451.277 - 0.841ms returns -1 (0xFFFFFFFF)
T34B4 001:451.290 JLINK_ReadMemEx(0x4004A020, 0x4 Bytes, Flags = 0x02000004)
T34B4 001:451.308   CPU_ReadMem(4 bytes @ 0x4004A020)
T34B4 001:452.086   failed
T34B4 001:452.105 - 0.818ms returns -1 (0xFFFFFFFF)
T34B4 001:452.117 JLINK_ReadMemEx(0x4004A024, 0x4 Bytes, Flags = 0x02000004)
T34B4 001:452.130   CPU_ReadMem(4 bytes @ 0x4004A024)
T34B4 001:452.935   failed
T34B4 001:452.953 - 0.840ms returns -1 (0xFFFFFFFF)
T34B4 001:453.002 JLINK_ReadMemEx(0x4004A028, 0x4 Bytes, Flags = 0x02000004)
T34B4 001:453.028   CPU_ReadMem(4 bytes @ 0x4004A028)
T34B4 001:453.801   failed
T34B4 001:453.820 - 0.821ms returns -1 (0xFFFFFFFF)
T34B4 001:453.832 JLINK_ReadMemEx(0x4004A02C, 0x4 Bytes, Flags = 0x02000004)
T34B4 001:453.845   CPU_ReadMem(4 bytes @ 0x4004A02C)
T34B4 001:454.675   failed
T34B4 001:454.710 - 0.885ms returns -1 (0xFFFFFFFF)
T34B4 001:454.734 JLINK_ReadMemEx(0x4004A030, 0x4 Bytes, Flags = 0x02000004)
T34B4 001:454.759   CPU_ReadMem(4 bytes @ 0x4004A030)
T34B4 001:455.586   failed
T34B4 001:455.621 - 0.894ms returns -1 (0xFFFFFFFF)
T34B4 001:455.644 JLINK_ReadMemEx(0x4004A034, 0x4 Bytes, Flags = 0x02000004)
T34B4 001:455.670   CPU_ReadMem(4 bytes @ 0x4004A034)
T34B4 001:456.488   failed
T34B4 001:456.506 - 0.865ms returns -1 (0xFFFFFFFF)
T34B4 001:456.518 JLINK_ReadMemEx(0x4004A038, 0x4 Bytes, Flags = 0x02000004)
T34B4 001:456.532   CPU_ReadMem(4 bytes @ 0x4004A038)
T34B4 001:457.410   failed
T34B4 001:457.493 - 0.984ms returns -1 (0xFFFFFFFF)
T34B4 001:457.523 JLINK_ReadMemEx(0x4004A03C, 0x4 Bytes, Flags = 0x02000004)
T34B4 001:457.565   CPU_ReadMem(4 bytes @ 0x4004A03C)
T34B4 001:458.349   failed
T34B4 001:458.365 - 0.844ms returns -1 (0xFFFFFFFF)
T34B4 001:458.374 JLINK_ReadMemEx(0x4004A040, 0x4 Bytes, Flags = 0x02000004)
T34B4 001:458.385   CPU_ReadMem(4 bytes @ 0x4004A040)
T34B4 001:459.166   failed
T34B4 001:459.180 - 0.809ms returns -1 (0xFFFFFFFF)
T34B4 001:459.190 JLINK_ReadMemEx(0x4004A044, 0x4 Bytes, Flags = 0x02000004)
T34B4 001:459.201   CPU_ReadMem(4 bytes @ 0x4004A044)
T34B4 001:459.961   failed
T34B4 001:459.975 - 0.787ms returns -1 (0xFFFFFFFF)
T34B4 001:459.985 JLINK_ReadMemEx(0x4004A048, 0x4 Bytes, Flags = 0x02000004)
T34B4 001:459.995   CPU_ReadMem(4 bytes @ 0x4004A048)
T34B4 001:460.762   failed
T34B4 001:460.776 - 0.794ms returns -1 (0xFFFFFFFF)
T34B4 001:460.786 JLINK_ReadMemEx(0x4004A04C, 0x4 Bytes, Flags = 0x02000004)
T34B4 001:460.796   CPU_ReadMem(4 bytes @ 0x4004A04C)
T34B4 001:461.552   failed
T34B4 001:461.566 - 0.783ms returns -1 (0xFFFFFFFF)
T34B4 001:461.576 JLINK_ReadMemEx(0x4004A050, 0x4 Bytes, Flags = 0x02000004)
T34B4 001:461.586   CPU_ReadMem(4 bytes @ 0x4004A050)
T34B4 001:462.315   failed
T34B4 001:462.329 - 0.756ms returns -1 (0xFFFFFFFF)
T34B4 001:462.339 JLINK_ReadMemEx(0x4004A054, 0x4 Bytes, Flags = 0x02000004)
T34B4 001:462.354   CPU_ReadMem(4 bytes @ 0x4004A054)
T34B4 001:463.205   failed
T34B4 001:463.224 - 0.888ms returns -1 (0xFFFFFFFF)
T34B4 001:463.236 JLINK_ReadMemEx(0x4004A058, 0x4 Bytes, Flags = 0x02000004)
T34B4 001:463.250   CPU_ReadMem(4 bytes @ 0x4004A058)
T34B4 001:464.005   failed
T34B4 001:464.051 - 0.820ms returns -1 (0xFFFFFFFF)
T34B4 001:464.074 JLINK_ReadMemEx(0x4004A05C, 0x4 Bytes, Flags = 0x02000004)
T34B4 001:464.100   CPU_ReadMem(4 bytes @ 0x4004A05C)
T34B4 001:464.958   failed
T34B4 001:464.976 - 0.906ms returns -1 (0xFFFFFFFF)
T34B4 001:464.988 JLINK_ReadMemEx(0x4004A060, 0x4 Bytes, Flags = 0x02000004)
T34B4 001:465.001   CPU_ReadMem(4 bytes @ 0x4004A060)
T34B4 001:465.656   failed
T34B4 001:465.700 - 0.720ms returns -1 (0xFFFFFFFF)
T34B4 001:465.728 JLINK_ReadMemEx(0x4004A064, 0x4 Bytes, Flags = 0x02000004)
T34B4 001:465.761   CPU_ReadMem(4 bytes @ 0x4004A064)
T34B4 001:466.452   failed
T34B4 001:466.505 - 0.781ms returns -1 (0xFFFFFFFF)
T34B4 001:466.519 JLINK_ReadMemEx(0x4004A068, 0x4 Bytes, Flags = 0x02000004)
T34B4 001:466.535   CPU_ReadMem(4 bytes @ 0x4004A068)
T34B4 001:467.375   failed
T34B4 001:467.414 - 0.900ms returns -1 (0xFFFFFFFF)
T34B4 001:467.430 JLINK_ReadMemEx(0x4004A06C, 0x4 Bytes, Flags = 0x02000004)
T34B4 001:467.469   CPU_ReadMem(4 bytes @ 0x4004A06C)
T34B4 001:468.215   failed
T34B4 001:468.251 - 0.827ms returns -1 (0xFFFFFFFF)
T34B4 001:468.273 JLINK_ReadMemEx(0x4004A070, 0x4 Bytes, Flags = 0x02000004)
T34B4 001:468.300   CPU_ReadMem(4 bytes @ 0x4004A070)
T34B4 001:469.053   failed
T34B4 001:469.071 - 0.801ms returns -1 (0xFFFFFFFF)
T34B4 001:469.083 JLINK_ReadMemEx(0x4004A074, 0x4 Bytes, Flags = 0x02000004)
T34B4 001:469.097   CPU_ReadMem(4 bytes @ 0x4004A074)
T34B4 001:469.914   failed
T34B4 001:469.950 - 0.873ms returns -1 (0xFFFFFFFF)
T34B4 001:469.973 JLINK_ReadMemEx(0x4004A078, 0x4 Bytes, Flags = 0x02000004)
T34B4 001:469.999   CPU_ReadMem(4 bytes @ 0x4004A078)
T34B4 001:470.775   failed
T34B4 001:470.811 - 0.844ms returns -1 (0xFFFFFFFF)
T34B4 001:470.836 JLINK_ReadMemEx(0x4004A07C, 0x4 Bytes, Flags = 0x02000004)
T34B4 001:470.862   CPU_ReadMem(4 bytes @ 0x4004A07C)
T34B4 001:471.607   failed
T34B4 001:471.643 - 0.813ms returns -1 (0xFFFFFFFF)
T34B4 001:471.666 JLINK_ReadMemEx(0x4004A07C, 0x4 Bytes, Flags = 0x02000004)
T34B4 001:471.701   CPU_ReadMem(4 bytes @ 0x4004A07C)
T34B4 001:472.500   failed
T34B4 001:472.535 - 0.875ms returns -1 (0xFFFFFFFF)
T34B4 001:472.566 JLINK_ReadMemEx(0x4004A0A0, 0x4 Bytes, Flags = 0x02000004)
T34B4 001:472.598   CPU_ReadMem(4 bytes @ 0x4004A0A0)
T34B4 001:473.413   failed
T34B4 001:473.450 - 0.890ms returns -1 (0xFFFFFFFF)
T34B4 001:473.478 JLINK_ReadMemEx(0x4004A0A0, 0x4 Bytes, Flags = 0x02000004)
T34B4 001:473.510   CPU_ReadMem(4 bytes @ 0x4004A0A0)
T34B4 001:474.318   failed
T34B4 001:474.355 - 0.890ms returns -1 (0xFFFFFFFF)
T34B4 004:539.197 JLINK_ReadMemEx(0x000001AC, 0x3C Bytes, Flags = 0x02000000)
T34B4 004:539.243    -- Read from C cache (60 bytes @ 0x000001AC)
T34B4 004:539.260   Data:  07 48 80 47 07 48 00 47 FE E7 FE E7 FE E7 FE E7 ...
T34B4 004:539.274 - 0.082ms returns 60 (0x3C)
T34B4 004:539.287 JLINK_ReadMemEx(0x000001AC, 0x2 Bytes, Flags = 0x02000000)
T34B4 004:539.300    -- Read from C cache (2 bytes @ 0x000001AC)
T34B4 004:539.314   Data:  07 48
T34B4 004:539.327 - 0.044ms returns 2 (0x2)
T34B4 004:539.340 JLINK_ReadMemEx(0x000001AE, 0x2 Bytes, Flags = 0x02000000)
T34B4 004:539.352    -- Read from C cache (2 bytes @ 0x000001AE)
T34B4 004:539.367   Data:  80 47
T34B4 004:539.381 - 0.046ms returns 2 (0x2)
T34B4 004:539.430 JLINK_ReadMemEx(0x000001AE, 0x2 Bytes, Flags = 0x02000000)
T34B4 004:539.442    -- Read from C cache (2 bytes @ 0x000001AE)
T34B4 004:539.458   Data:  80 47
T34B4 004:539.472 - 0.047ms returns 2 (0x2)
T34B4 004:539.484 JLINK_ReadMemEx(0x000001B0, 0x3C Bytes, Flags = 0x02000000)
T34B4 004:539.496    -- Read from C cache (60 bytes @ 0x000001B0)
T34B4 004:539.513   Data:  07 48 00 47 FE E7 FE E7 FE E7 FE E7 FE E7 FE E7 ...
T34B4 004:539.528 - 0.048ms returns 60 (0x3C)
T34B4 004:539.540 JLINK_ReadMemEx(0x000001B0, 0x2 Bytes, Flags = 0x02000000)
T34B4 004:539.551    -- Read from C cache (2 bytes @ 0x000001B0)
T34B4 004:539.567   Data:  07 48
T34B4 004:539.581 - 0.045ms returns 2 (0x2)
T34B4 005:110.717 JLINK_HasError()
T34B4 005:110.745 JLINK_ReadReg(R0)
T34B4 005:111.407 - 0.675ms returns 0x1FFFFC06
T34B4 005:111.429 JLINK_ReadReg(R1)
T34B4 005:111.437 - 0.011ms returns 0x00000001
T34B4 005:111.445 JLINK_ReadReg(R2)
T34B4 005:111.452 - 0.010ms returns 0x400FF000
T34B4 005:111.461 JLINK_ReadReg(R3)
T34B4 005:111.468 - 0.010ms returns 0x00000000
T34B4 005:111.476 JLINK_ReadReg(R4)
T34B4 005:111.490 - 0.017ms returns 0x00001DD0
T34B4 005:111.498 JLINK_ReadReg(R5)
T34B4 005:111.505 - 0.010ms returns 0x1FFFFE4C
T34B4 005:111.513 JLINK_ReadReg(R6)
T34B4 005:111.520 - 0.010ms returns 0x00000000
T34B4 005:111.528 JLINK_ReadReg(R7)
T34B4 005:111.535 - 0.010ms returns 0x00000000
T34B4 005:111.542 JLINK_ReadReg(R8)
T34B4 005:111.568 - 0.028ms returns 0x00000000
T34B4 005:111.576 JLINK_ReadReg(R9)
T34B4 005:111.630 - 0.060ms returns 0x200001C8
T34B4 005:111.641 JLINK_ReadReg(R10)
T34B4 005:111.672 - 0.034ms returns 0x00001DD0
T34B4 005:111.680 JLINK_ReadReg(R11)
T34B4 005:111.686 - 0.009ms returns 0x00001DD0
T34B4 005:111.694 JLINK_ReadReg(R12)
T34B4 005:111.700 - 0.009ms returns 0x00000000
T34B4 005:111.707 JLINK_ReadReg(R13 (SP))
T34B4 005:111.714 - 0.010ms returns 0x1FFFFFB0
T34B4 005:111.722 JLINK_ReadReg(R14)
T34B4 005:111.728 - 0.009ms returns 0xFFFFFFF9
T34B4 005:111.735 JLINK_ReadReg(R15 (PC))
T34B4 005:111.742 - 0.010ms returns 0x000001AC
T34B4 005:111.750 JLINK_ReadReg(XPSR)
T34B4 005:111.756 - 0.009ms returns 0x61000000
T34B4 005:111.763 JLINK_ReadReg(MSP)
T34B4 005:111.770 - 0.009ms returns 0x1FFFFFB0
T34B4 005:111.777 JLINK_ReadReg(PSP)
T34B4 005:111.784 - 0.009ms returns 0x20000C00
T34B4 005:111.791 JLINK_ReadReg(CFBP)
T34B4 005:111.798 - 0.009ms returns 0x00000000
T28D0 005:229.697 JLINK_ReadMemEx(0x000001AC, 0x2 Bytes, Flags = 0x02000000)
T28D0 005:229.731    -- Read from C cache (2 bytes @ 0x000001AC)
T28D0 005:229.742   Data:  07 48
T28D0 005:229.752 - 0.060ms returns 2 (0x2)
T28D0 005:229.765 JLINK_HasError()
T28D0 005:229.870 JLINK_SetBPEx(Addr = 0x000018FC, Type = 0xFFFFFFF2)
T28D0 005:229.889 - 0.113ms returns 0x00000001
T28D0 005:229.899 JLINK_HasError()
T28D0 005:229.909 JLINK_SetBPEx(Addr = 0x00001A54, Type = 0xFFFFFFF2)
T28D0 005:229.920 - 0.016ms returns 0x00000002
T28D0 005:229.931 JLINK_HasError()
T28D0 005:229.949 JLINK_HasError()
T28D0 005:229.966 JLINK_ReadMemEx(0xF0000000, 0x8 Bytes, Flags = 0x02000004)
T28D0 005:229.985   CPU_ReadMem(8 bytes @ 0xF0000000)
T28D0 005:230.618   Data:  EC 7F 00 00 8E 00 00 00
T28D0 005:230.638 - 0.675ms returns 8 (0x8)
T28D0 005:230.755 JLINK_Go()
T28D0 005:230.793   CPU_WriteMem(4 bytes @ 0xE0002000)
T28D0 005:231.455   CPU_WriteMem(4 bytes @ 0xE0002000)
T28D0 005:232.143   CPU_ReadMem(4 bytes @ 0xE0001000)
T28D0 005:232.814   CPU_WriteMem(4 bytes @ 0xE0001000)
T28D0 005:232.853   CPU_WriteMem(4 bytes @ 0xE0002008)
T28D0 005:232.887   CPU_WriteMem(4 bytes @ 0xE000200C)
T28D0 005:234.275   CPU_WriteMem(4 bytes @ 0xE0001004)
T28D0 005:235.663 - 4.929ms
T28D0 005:336.046 JLINK_HasError()
T28D0 005:336.102 JLINK_IsHalted()
T28D0 005:341.172 - 5.089ms returns TRUE
T28D0 005:341.202 JLINK_HasError()
T28D0 005:341.214 JLINK_Halt()
T28D0 005:341.222 - 0.012ms returns 0x00
T28D0 005:341.232 JLINK_IsHalted()
T28D0 005:341.241 - 0.013ms returns TRUE
T28D0 005:341.255 JLINK_IsHalted()
T28D0 005:341.263 - 0.012ms returns TRUE
T28D0 005:341.273 JLINK_IsHalted()
T28D0 005:341.281 - 0.013ms returns TRUE
T28D0 005:341.292 JLINK_HasError()
T28D0 005:341.303 JLINK_ReadReg(R15 (PC))
T28D0 005:341.316 - 0.017ms returns 0x000018FC
T28D0 005:341.326 JLINK_ReadReg(XPSR)
T28D0 005:341.335 - 0.021ms returns 0x01000000
T28D0 005:341.360 JLINK_HasError()
T28D0 005:341.369 JLINK_ClrBPEx(BPHandle = 0x00000001)
T28D0 005:341.397 - 0.048ms returns 0x00
T28D0 005:341.431 JLINK_HasError()
T28D0 005:341.445 JLINK_ClrBPEx(BPHandle = 0x00000002)
T28D0 005:341.459 - 0.020ms returns 0x00
T28D0 005:341.474 JLINK_HasError()
T28D0 005:341.489 JLINK_HasError()
T28D0 005:341.531 JLINK_ReadMemU32(0xE000ED30, 0x1 Items)
T28D0 005:341.593   CPU_ReadMem(4 bytes @ 0xE000ED30)
T28D0 005:342.112   Data:  02 00 00 00
T28D0 005:342.141 - 0.616ms returns 1 (0x1)
T28D0 005:342.160 JLINK_ReadMemU32(0xE0001028, 0x1 Items)
T28D0 005:342.192   CPU_ReadMem(4 bytes @ 0xE0001028)
T28D0 005:342.776   Data:  00 00 00 00
T28D0 005:342.817   Debug reg: DWT_FUNC[0]
T28D0 005:342.837 - 0.684ms returns 1 (0x1)
T28D0 005:342.858 JLINK_ReadMemU32(0xE0001038, 0x1 Items)
T28D0 005:342.902   CPU_ReadMem(4 bytes @ 0xE0001038)
T28D0 005:343.421   Data:  00 00 00 00
T28D0 005:343.449   Debug reg: DWT_FUNC[1]
T28D0 005:343.466 - 0.614ms returns 1 (0x1)
T28D0 005:343.524 JLINK_HasError()
T28D0 005:343.543 JLINK_ReadReg(R0)
T28D0 005:343.562 - 0.025ms returns 0x1FFFFEB0
T28D0 005:343.578 JLINK_ReadReg(R1)
T28D0 005:343.618 - 0.046ms returns 0x1FFFFEB0
T28D0 005:343.712 JLINK_ReadReg(R2)
T28D0 005:343.738 - 0.032ms returns 0x1FFFFEB0
T28D0 005:343.754 JLINK_ReadReg(R3)
T28D0 005:343.768 - 0.020ms returns 0x1FFFFEB0
T28D0 005:343.785 JLINK_ReadReg(R4)
T28D0 005:343.798 - 0.019ms returns 0x00001DD0
T28D0 005:343.812 JLINK_ReadReg(R5)
T28D0 005:343.826 - 0.020ms returns 0x1FFFFE4C
T28D0 005:343.842 JLINK_ReadReg(R6)
T28D0 005:343.855 - 0.019ms returns 0x00000000
T28D0 005:343.870 JLINK_ReadReg(R7)
T28D0 005:343.883 - 0.019ms returns 0x00000000
T28D0 005:343.898 JLINK_ReadReg(R8)
T28D0 005:343.911 - 0.019ms returns 0x00000000
T28D0 005:343.924 JLINK_ReadReg(R9)
T28D0 005:343.933 - 0.013ms returns 0x200001C8
T28D0 005:343.944 JLINK_ReadReg(R10)
T28D0 005:343.953 - 0.014ms returns 0x00001DD0
T28D0 005:343.966 JLINK_ReadReg(R11)
T28D0 005:343.979 - 0.019ms returns 0x00001DD0
T28D0 005:343.993 JLINK_ReadReg(R12)
T28D0 005:344.007 - 0.019ms returns 0x00000000
T28D0 005:344.021 JLINK_ReadReg(R13 (SP))
T28D0 005:344.034 - 0.018ms returns 0x1FFFFFB0
T28D0 005:344.049 JLINK_ReadReg(R14)
T28D0 005:344.062 - 0.020ms returns 0x00000163
T28D0 005:344.078 JLINK_ReadReg(R15 (PC))
T28D0 005:344.091 - 0.019ms returns 0x000018FC
T28D0 005:344.105 JLINK_ReadReg(XPSR)
T28D0 005:344.119 - 0.020ms returns 0x01000000
T28D0 005:344.134 JLINK_ReadReg(MSP)
T28D0 005:344.148 - 0.024ms returns 0x1FFFFFB0
T28D0 005:344.178 JLINK_ReadReg(PSP)
T28D0 005:344.191 - 0.019ms returns 0x20000C00
T28D0 005:344.206 JLINK_ReadReg(CFBP)
T28D0 005:344.219 - 0.019ms returns 0x00000000
T34B4 005:347.714 JLINK_HasError()
T34B4 005:348.118 JLINK_ReadMemEx(0xF80FF000, 0x4 Bytes, Flags = 0x02000004)
T34B4 005:348.164   CPU_ReadMem(4 bytes @ 0xF80FF000)
T34B4 005:348.703   Data:  00 00 00 00
T34B4 005:348.757 - 0.645ms returns 4 (0x4)
T34B4 005:348.781 JLINK_ReadMemEx(0xF80FF010, 0x4 Bytes, Flags = 0x02000004)
T34B4 005:348.828   CPU_ReadMem(4 bytes @ 0xF80FF010)
T34B4 005:349.338   Data:  00 00 00 00
T34B4 005:349.360 - 0.584ms returns 4 (0x4)
T34B4 005:349.377 JLINK_ReadMemEx(0xF80FF014, 0x4 Bytes, Flags = 0x02000004)
T34B4 005:349.394   CPU_ReadMem(4 bytes @ 0xF80FF014)
T34B4 005:349.898   Data:  00 00 00 00
T34B4 005:349.916 - 0.543ms returns 4 (0x4)
T34B4 005:350.951 JLINK_ReadMemEx(0x4004A000, 0x7C Bytes, Flags = 0x02000004)
T34B4 005:350.974   CPU_ReadMem(124 bytes @ 0x4004A000)
T34B4 005:351.853   failed
T34B4 005:351.873 - 0.926ms returns -1 (0xFFFFFFFF)
T34B4 005:351.888 JLINK_ReadMemEx(0x4004A000, 0x4 Bytes, Flags = 0x02000004)
T34B4 005:351.905   CPU_ReadMem(4 bytes @ 0x4004A000)
T34B4 005:352.555   failed
T34B4 005:352.572 - 0.687ms returns -1 (0xFFFFFFFF)
T34B4 005:352.584 JLINK_ReadMemEx(0x4004A004, 0x4 Bytes, Flags = 0x02000004)
T34B4 005:352.598   CPU_ReadMem(4 bytes @ 0x4004A004)
T34B4 005:353.202   failed
T34B4 005:353.219 - 0.638ms returns -1 (0xFFFFFFFF)
T34B4 005:353.231 JLINK_ReadMemEx(0x4004A008, 0x4 Bytes, Flags = 0x02000004)
T34B4 005:353.244   CPU_ReadMem(4 bytes @ 0x4004A008)
T34B4 005:353.850   failed
T34B4 005:353.865 - 0.638ms returns -1 (0xFFFFFFFF)
T34B4 005:353.877 JLINK_ReadMemEx(0x4004A00C, 0x4 Bytes, Flags = 0x02000004)
T34B4 005:353.890   CPU_ReadMem(4 bytes @ 0x4004A00C)
T34B4 005:354.487   failed
T34B4 005:354.503 - 0.628ms returns -1 (0xFFFFFFFF)
T34B4 005:354.514 JLINK_ReadMemEx(0x4004A010, 0x4 Bytes, Flags = 0x02000004)
T34B4 005:354.527   CPU_ReadMem(4 bytes @ 0x4004A010)
T34B4 005:355.117   failed
T34B4 005:355.133 - 0.622ms returns -1 (0xFFFFFFFF)
T34B4 005:355.145 JLINK_ReadMemEx(0x4004A014, 0x4 Bytes, Flags = 0x02000004)
T34B4 005:355.157   CPU_ReadMem(4 bytes @ 0x4004A014)
T34B4 005:355.797   failed
T34B4 005:355.814 - 0.673ms returns -1 (0xFFFFFFFF)
T34B4 005:355.827 JLINK_ReadMemEx(0x4004A018, 0x4 Bytes, Flags = 0x02000004)
T34B4 005:355.840   CPU_ReadMem(4 bytes @ 0x4004A018)
T34B4 005:356.427   failed
T34B4 005:356.443 - 0.619ms returns -1 (0xFFFFFFFF)
T34B4 005:356.455 JLINK_ReadMemEx(0x4004A01C, 0x4 Bytes, Flags = 0x02000004)
T34B4 005:356.492   CPU_ReadMem(4 bytes @ 0x4004A01C)
T34B4 005:357.138   failed
T34B4 005:357.155 - 0.703ms returns -1 (0xFFFFFFFF)
T34B4 005:357.167 JLINK_ReadMemEx(0x4004A020, 0x4 Bytes, Flags = 0x02000004)
T34B4 005:357.180   CPU_ReadMem(4 bytes @ 0x4004A020)
T34B4 005:357.810   failed
T34B4 005:357.825 - 0.662ms returns -1 (0xFFFFFFFF)
T34B4 005:357.837 JLINK_ReadMemEx(0x4004A024, 0x4 Bytes, Flags = 0x02000004)
T34B4 005:357.849   CPU_ReadMem(4 bytes @ 0x4004A024)
T34B4 005:358.460   failed
T34B4 005:358.477 - 0.643ms returns -1 (0xFFFFFFFF)
T34B4 005:358.489 JLINK_ReadMemEx(0x4004A028, 0x4 Bytes, Flags = 0x02000004)
T34B4 005:358.502   CPU_ReadMem(4 bytes @ 0x4004A028)
T34B4 005:359.098   failed
T34B4 005:359.115 - 0.629ms returns -1 (0xFFFFFFFF)
T34B4 005:359.127 JLINK_ReadMemEx(0x4004A02C, 0x4 Bytes, Flags = 0x02000004)
T34B4 005:359.140   CPU_ReadMem(4 bytes @ 0x4004A02C)
T34B4 005:359.734   failed
T34B4 005:359.749 - 0.625ms returns -1 (0xFFFFFFFF)
T34B4 005:359.760 JLINK_ReadMemEx(0x4004A030, 0x4 Bytes, Flags = 0x02000004)
T34B4 005:359.771   CPU_ReadMem(4 bytes @ 0x4004A030)
T34B4 005:360.408   failed
T34B4 005:360.434 - 0.679ms returns -1 (0xFFFFFFFF)
T34B4 005:360.456 JLINK_ReadMemEx(0x4004A034, 0x4 Bytes, Flags = 0x02000004)
T34B4 005:360.480   CPU_ReadMem(4 bytes @ 0x4004A034)
T34B4 005:361.086   failed
T34B4 005:361.107 - 0.656ms returns -1 (0xFFFFFFFF)
T34B4 005:361.125 JLINK_ReadMemEx(0x4004A038, 0x4 Bytes, Flags = 0x02000004)
T34B4 005:361.143   CPU_ReadMem(4 bytes @ 0x4004A038)
T34B4 005:361.773   failed
T34B4 005:361.793 - 0.673ms returns -1 (0xFFFFFFFF)
T34B4 005:361.811 JLINK_ReadMemEx(0x4004A03C, 0x4 Bytes, Flags = 0x02000004)
T34B4 005:361.827   CPU_ReadMem(4 bytes @ 0x4004A03C)
T34B4 005:362.471   failed
T34B4 005:362.493 - 0.687ms returns -1 (0xFFFFFFFF)
T34B4 005:362.512 JLINK_ReadMemEx(0x4004A040, 0x4 Bytes, Flags = 0x02000004)
T34B4 005:362.531   CPU_ReadMem(4 bytes @ 0x4004A040)
T34B4 005:363.212   failed
T34B4 005:363.235 - 0.727ms returns -1 (0xFFFFFFFF)
T34B4 005:363.254 JLINK_ReadMemEx(0x4004A044, 0x4 Bytes, Flags = 0x02000004)
T34B4 005:363.272   CPU_ReadMem(4 bytes @ 0x4004A044)
T34B4 005:363.886   failed
T34B4 005:363.910 - 0.662ms returns -1 (0xFFFFFFFF)
T34B4 005:363.978 JLINK_ReadMemEx(0x4004A048, 0x4 Bytes, Flags = 0x02000004)
T34B4 005:364.009   CPU_ReadMem(4 bytes @ 0x4004A048)
T34B4 005:364.663   failed
T34B4 005:364.702 - 0.731ms returns -1 (0xFFFFFFFF)
T34B4 005:364.728 JLINK_ReadMemEx(0x4004A04C, 0x4 Bytes, Flags = 0x02000004)
T34B4 005:364.757   CPU_ReadMem(4 bytes @ 0x4004A04C)
T34B4 005:365.444   failed
T34B4 005:365.512 - 0.791ms returns -1 (0xFFFFFFFF)
T34B4 005:365.542 JLINK_ReadMemEx(0x4004A050, 0x4 Bytes, Flags = 0x02000004)
T34B4 005:365.578   CPU_ReadMem(4 bytes @ 0x4004A050)
T34B4 005:366.405   failed
T34B4 005:366.446 - 0.912ms returns -1 (0xFFFFFFFF)
T34B4 005:366.481 JLINK_ReadMemEx(0x4004A054, 0x4 Bytes, Flags = 0x02000004)
T34B4 005:366.524   CPU_ReadMem(4 bytes @ 0x4004A054)
T34B4 005:367.356   failed
T34B4 005:367.394 - 0.922ms returns -1 (0xFFFFFFFF)
T34B4 005:367.422 JLINK_ReadMemEx(0x4004A058, 0x4 Bytes, Flags = 0x02000004)
T34B4 005:367.454   CPU_ReadMem(4 bytes @ 0x4004A058)
T34B4 005:368.138   failed
T34B4 005:368.173 - 0.758ms returns -1 (0xFFFFFFFF)
T34B4 005:368.197 JLINK_ReadMemEx(0x4004A05C, 0x4 Bytes, Flags = 0x02000004)
T34B4 005:368.225   CPU_ReadMem(4 bytes @ 0x4004A05C)
T34B4 005:368.898   failed
T34B4 005:368.938 - 0.748ms returns -1 (0xFFFFFFFF)
T34B4 005:368.962 JLINK_ReadMemEx(0x4004A060, 0x4 Bytes, Flags = 0x02000004)
T34B4 005:368.988   CPU_ReadMem(4 bytes @ 0x4004A060)
T34B4 005:369.608   failed
T34B4 005:369.631 - 0.676ms returns -1 (0xFFFFFFFF)
T34B4 005:369.650 JLINK_ReadMemEx(0x4004A064, 0x4 Bytes, Flags = 0x02000004)
T34B4 005:369.670   CPU_ReadMem(4 bytes @ 0x4004A064)
T34B4 005:370.332   failed
T34B4 005:370.355 - 0.711ms returns -1 (0xFFFFFFFF)
T34B4 005:370.373 JLINK_ReadMemEx(0x4004A068, 0x4 Bytes, Flags = 0x02000004)
T34B4 005:370.392   CPU_ReadMem(4 bytes @ 0x4004A068)
T34B4 005:371.013   failed
T34B4 005:371.045 - 0.676ms returns -1 (0xFFFFFFFF)
T34B4 005:371.060 JLINK_ReadMemEx(0x4004A06C, 0x4 Bytes, Flags = 0x02000004)
T34B4 005:371.077   CPU_ReadMem(4 bytes @ 0x4004A06C)
T34B4 005:371.722   failed
T34B4 005:371.740 - 0.683ms returns -1 (0xFFFFFFFF)
T34B4 005:371.753 JLINK_ReadMemEx(0x4004A070, 0x4 Bytes, Flags = 0x02000004)
T34B4 005:371.766   CPU_ReadMem(4 bytes @ 0x4004A070)
T34B4 005:372.412   failed
T34B4 005:372.430 - 0.681ms returns -1 (0xFFFFFFFF)
T34B4 005:372.444 JLINK_ReadMemEx(0x4004A074, 0x4 Bytes, Flags = 0x02000004)
T34B4 005:372.482   CPU_ReadMem(4 bytes @ 0x4004A074)
T34B4 005:373.087   failed
T34B4 005:373.102 - 0.662ms returns -1 (0xFFFFFFFF)
T34B4 005:373.114 JLINK_ReadMemEx(0x4004A078, 0x4 Bytes, Flags = 0x02000004)
T34B4 005:373.126   CPU_ReadMem(4 bytes @ 0x4004A078)
T34B4 005:373.719   failed
T34B4 005:373.736 - 0.625ms returns -1 (0xFFFFFFFF)
T34B4 005:373.749 JLINK_ReadMemEx(0x4004A07C, 0x4 Bytes, Flags = 0x02000004)
T34B4 005:373.763   CPU_ReadMem(4 bytes @ 0x4004A07C)
T34B4 005:374.394   failed
T34B4 005:374.410 - 0.664ms returns -1 (0xFFFFFFFF)
T34B4 005:374.422 JLINK_ReadMemEx(0x4004A07C, 0x4 Bytes, Flags = 0x02000004)
T34B4 005:374.434   CPU_ReadMem(4 bytes @ 0x4004A07C)
T34B4 005:375.033   failed
T34B4 005:375.049 - 0.630ms returns -1 (0xFFFFFFFF)
T34B4 005:375.061 JLINK_ReadMemEx(0x4004A0A0, 0x4 Bytes, Flags = 0x02000004)
T34B4 005:375.072   CPU_ReadMem(4 bytes @ 0x4004A0A0)
T34B4 005:375.667   failed
T34B4 005:375.681 - 0.624ms returns -1 (0xFFFFFFFF)
T34B4 005:375.692 JLINK_ReadMemEx(0x4004A0A0, 0x4 Bytes, Flags = 0x02000004)
T34B4 005:375.704   CPU_ReadMem(4 bytes @ 0x4004A0A0)
T34B4 005:376.319   failed
T34B4 005:376.333 - 0.644ms returns -1 (0xFFFFFFFF)
T34B4 005:389.717 JLINK_ReadMemEx(0x40049000, 0x7C Bytes, Flags = 0x02000004)
T34B4 005:389.758   CPU_ReadMem(124 bytes @ 0x40049000)
T34B4 005:390.651   failed
T34B4 005:390.670 - 0.957ms returns -1 (0xFFFFFFFF)
T34B4 005:390.690 JLINK_ReadMemEx(0x40049000, 0x4 Bytes, Flags = 0x02000004)
T34B4 005:390.710   CPU_ReadMem(4 bytes @ 0x40049000)
T34B4 005:391.332   failed
T34B4 005:391.354 - 0.667ms returns -1 (0xFFFFFFFF)
T34B4 005:391.369 JLINK_ReadMemEx(0x40049004, 0x4 Bytes, Flags = 0x02000004)
T34B4 005:391.387   CPU_ReadMem(4 bytes @ 0x40049004)
T34B4 005:392.008   failed
T34B4 005:392.022 - 0.656ms returns -1 (0xFFFFFFFF)
T34B4 005:392.035 JLINK_ReadMemEx(0x40049008, 0x4 Bytes, Flags = 0x02000004)
T34B4 005:392.050   CPU_ReadMem(4 bytes @ 0x40049008)
T34B4 005:392.621   failed
T34B4 005:392.636 - 0.604ms returns -1 (0xFFFFFFFF)
T34B4 005:392.649 JLINK_ReadMemEx(0x4004900C, 0x4 Bytes, Flags = 0x02000004)
T34B4 005:392.665   CPU_ReadMem(4 bytes @ 0x4004900C)
T34B4 005:393.240   failed
T34B4 005:393.253 - 0.607ms returns -1 (0xFFFFFFFF)
T34B4 005:393.266 JLINK_ReadMemEx(0x40049010, 0x4 Bytes, Flags = 0x02000004)
T34B4 005:393.281   CPU_ReadMem(4 bytes @ 0x40049010)
T34B4 005:393.885   failed
T34B4 005:393.899 - 0.636ms returns -1 (0xFFFFFFFF)
T34B4 005:393.912 JLINK_ReadMemEx(0x40049014, 0x4 Bytes, Flags = 0x02000004)
T34B4 005:393.926   CPU_ReadMem(4 bytes @ 0x40049014)
T34B4 005:394.508   failed
T34B4 005:394.521 - 0.612ms returns -1 (0xFFFFFFFF)
T34B4 005:394.534 JLINK_ReadMemEx(0x40049018, 0x4 Bytes, Flags = 0x02000004)
T34B4 005:394.557   CPU_ReadMem(4 bytes @ 0x40049018)
T34B4 005:395.147   failed
T34B4 005:395.174 - 0.644ms returns -1 (0xFFFFFFFF)
T34B4 005:395.239 JLINK_ReadMemEx(0x4004901C, 0x4 Bytes, Flags = 0x02000004)
T34B4 005:395.265   CPU_ReadMem(4 bytes @ 0x4004901C)
T34B4 005:395.898   failed
T34B4 005:395.926 - 0.693ms returns -1 (0xFFFFFFFF)
T34B4 005:395.946 JLINK_ReadMemEx(0x40049020, 0x4 Bytes, Flags = 0x02000004)
T34B4 005:395.970   CPU_ReadMem(4 bytes @ 0x40049020)
T34B4 005:396.652   failed
T34B4 005:396.680 - 0.739ms returns -1 (0xFFFFFFFF)
T34B4 005:396.701 JLINK_ReadMemEx(0x40049024, 0x4 Bytes, Flags = 0x02000004)
T34B4 005:396.725   CPU_ReadMem(4 bytes @ 0x40049024)
T34B4 005:397.397   failed
T34B4 005:397.426 - 0.739ms returns -1 (0xFFFFFFFF)
T34B4 005:397.458 JLINK_ReadMemEx(0x40049028, 0x4 Bytes, Flags = 0x02000004)
T34B4 005:397.483   CPU_ReadMem(4 bytes @ 0x40049028)
T34B4 005:398.126   failed
T34B4 005:398.162 - 0.710ms returns -1 (0xFFFFFFFF)
T34B4 005:398.185 JLINK_ReadMemEx(0x4004902C, 0x4 Bytes, Flags = 0x02000004)
T34B4 005:398.212   CPU_ReadMem(4 bytes @ 0x4004902C)
T34B4 005:398.890   failed
T34B4 005:398.922 - 0.745ms returns -1 (0xFFFFFFFF)
T34B4 005:398.947 JLINK_ReadMemEx(0x40049030, 0x4 Bytes, Flags = 0x02000004)
T34B4 005:398.972   CPU_ReadMem(4 bytes @ 0x40049030)
T34B4 005:399.661   failed
T34B4 005:399.692 - 0.752ms returns -1 (0xFFFFFFFF)
T34B4 005:399.715 JLINK_ReadMemEx(0x40049034, 0x4 Bytes, Flags = 0x02000004)
T34B4 005:399.740   CPU_ReadMem(4 bytes @ 0x40049034)
